!Keysight Technologies,N5242A,MY48320684,A.10.49.08
!Date: Wednesday, August 21, 2019 10:23:46
!Correction: S11(Full 2 Port(1,2)) 
!S21(Full 2 Port(1,2)) 
!S12(Full 2 Port(1,2)) 
!S22(Full 2 Port(1,2)) 
!S2P File: Measurements: S11, S21, S12, S22:
# Hz S  dB   R 50
10000000 -1.1043239 -43.43557 8.2898483 -74.796143 -27.942165 136.485 -1.2046422 -70.33403
20000000 -6.2872987 -75.365891 13.884569 -123.91008 -21.348299 74.398735 -6.4341879 -123.47761
30000000 -10.853269 -81.857803 14.71644 -145.5625 -20.283615 47.296421 -11.044415 -148.032
40000000 -13.938834 -80.762955 14.936463 -156.81456 -19.984388 33.535084 -14.096631 -161.77678
50000000 -16.044588 -77.50116 15.029307 -164.00899 -19.850111 24.84922 -16.389179 -171.27686
60000000 -17.487038 -74.090065 15.069241 -169.16907 -19.729385 18.749399 -17.693445 -176.86354
70000000 -18.62746 -71.345634 15.099309 -173.21863 -19.645023 14.142914 -18.848661 177.55939
80000000 -19.563465 -68.822487 15.121779 -176.57727 -19.629847 10.24261 -19.70056 173.50255
90000000 -20.204784 -66.755165 15.133461 -179.55191 -19.578199 6.8637395 -20.443027 170.49477
100000000 -20.782322 -65.259979 15.145702 177.83313 -19.562216 4.159492 -21.020033 167.71257
200000000 -23.51269 -55.820881 15.190752 158.5925 -19.437582 -15.382204 -24.56214 152.38715
300000000 -23.489008 -56.180454 15.199377 143.00699 -19.439316 -29.938786 -27.227003 147.68214
400000000 -22.891741 -62.394749 15.183907 128.36205 -19.488634 -43.06509 -29.415714 151.87392
500000000 -22.197676 -70.575897 15.157164 114.08443 -19.51466 -55.375298 -30.461548 161.52615
600000000 -21.317839 -81.053169 15.116783 100.13636 -19.552515 -67.462906 -30.62612 171.81667
700000000 -20.611908 -91.279526 15.072224 86.231392 -19.607544 -79.432487 -29.406811 179.95885
800000000 -19.689692 -101.85216 14.998627 72.51667 -19.666121 -91.09864 -28.311367 -177.90387
900000000 -18.960615 -114.38078 14.962175 59.104073 -19.675314 -102.88195 -26.735571 -177.60912
1000000000 -18.4603 -126.62144 14.92246 45.491348 -19.709574 -114.50106 -25.049171 176.13008
1100000000 -18.0683 -138.17479 14.871126 31.902704 -19.739788 -126.20547 -23.985085 167.84418
1200000000 -17.695595 -149.56071 14.812367 18.385487 -19.779905 -137.52989 -23.144859 159.19431
1300000000 -17.360901 -161.29298 14.746967 4.9187589 -19.846426 -149.26588 -22.526999 149.42047
1400000000 -17.09959 -172.76797 14.679172 -8.408103 -19.8878 -160.78952 -21.945738 139.09103
1500000000 -16.912603 175.70563 14.623111 -21.740517 -19.930622 -172.24904 -21.50276 127.1321
1600000000 -16.87331 163.89458 14.569522 -35.113987 -19.980999 176.20871 -21.236097 113.68848
1700000000 -16.92819 152.07791 14.507809 -48.487808 -19.989466 164.63744 -21.278049 99.471413
1800000000 -17.005596 140.57243 14.437067 -61.840691 -20.043346 153.05806 -21.324423 84.394997
1900000000 -17.155357 128.99812 14.360775 -75.114655 -20.122555 141.54724 -21.511156 69.360512
2000000000 -17.310986 116.89484 14.289269 -88.260231 -20.175652 130.01155 -21.787682 54.569244
2100000000 -17.520844 104.50483 14.232648 -101.34425 -20.2085 118.94645 -21.866423 39.14978
2200000000 -17.903353 91.218452 14.188996 -114.47562 -20.268957 107.26929 -21.714027 23.30275
2300000000 -18.325029 78.358421 14.153261 -127.65678 -20.270096 95.716141 -21.38669 6.3694491
2400000000 -18.838987 65.493973 14.110871 -140.93265 -20.310688 84.064461 -21.075254 -11.05528
2500000000 -19.274878 52.69368 14.066086 -154.26765 -20.314037 72.445969 -20.600691 -28.417229
2600000000 -19.705435 39.223267 14.009787 -167.60948 -20.362652 60.724731 -20.08403 -44.743736
2700000000 -20.075617 26.043627 13.944729 179.10921 -20.39839 48.868649 -19.561754 -60.124065
2800000000 -20.299706 12.049057 13.881009 165.76201 -20.47397 37.142723 -18.966183 -74.616791
2900000000 -20.270046 -1.37773 13.808805 152.47539 -20.539408 25.15601 -18.354197 -87.393845
3000000000 -20.007189 -15.357013 13.745529 139.18567 -20.604561 13.579362 -17.724152 -98.973953
3100000000 -19.579891 -29.456427 13.668776 125.90648 -20.686525 1.9062839 -17.189407 -109.68915
3200000000 -18.977634 -43.400581 13.591077 112.62085 -20.716991 -9.9597635 -16.612616 -119.86921
3300000000 -18.240517 -57.179344 13.508297 99.402275 -20.80839 -21.886553 -16.060326 -129.26939
3400000000 -17.454985 -70.663887 13.433221 86.172073 -20.892019 -33.64629 -15.514433 -138.13264
3500000000 -16.63356 -83.66423 13.349355 72.97699 -20.989107 -45.492043 -14.994293 -146.56903
3600000000 -15.78525 -96.311203 13.266181 59.794373 -21.09799 -57.187202 -14.480061 -155.02477
3700000000 -14.980221 -108.76281 13.181458 46.659611 -21.188276 -68.937103 -13.935623 -163.556
3800000000 -14.201962 -120.86572 13.096134 33.539841 -21.26675 -80.640251 -13.472871 -171.64447
3900000000 -13.523181 -132.87088 13.014623 20.469202 -21.369324 -92.539757 -13.021361 179.58934
4000000000 -12.847718 -144.43755 12.933384 7.424561 -21.456888 -104.08633 -12.611166 171.10898
4100000000 -12.257759 -156.10983 12.857017 -5.5922689 -21.511383 -115.76317 -12.214776 162.01085
4200000000 -11.73918 -167.55325 12.77847 -18.610174 -21.633421 -127.49921 -11.899725 153.1658
4300000000 -11.272649 -178.96512 12.711446 -31.562777 -21.707613 -139.1192 -11.663069 143.89175
4400000000 -10.910222 169.78949 12.647652 -44.497738 -21.803741 -150.8851 -11.463679 134.61226
4500000000 -10.616171 158.55768 12.590915 -57.406094 -21.882071 -162.44006 -11.338969 124.9395
4600000000 -10.414845 147.55481 12.54501 -70.333206 -21.933752 -174.12494 -11.328909 115.26553
4700000000 -10.251939 136.51247 12.506762 -83.248322 -21.981451 174.4068 -11.35556 105.13196
4800000000 -10.172306 125.56406 12.479709 -96.164467 -22.04623 162.65002 -11.502799 94.746941
4900000000 -10.162662 114.555 12.463662 -109.1486 -22.048246 150.8593 -11.736943 84.086258
5000000000 -10.255713 103.63797 12.455612 -122.17686 -22.08526 139.30267 -12.146894 73.161316
5100000000 -10.451818 92.764465 12.455833 -135.30159 -22.114885 127.16711 -12.712906 61.648071
5200000000 -10.717231 81.937408 12.463002 -148.53877 -22.104811 115.33256 -13.387874 49.749359
5300000000 -11.091494 71.095604 12.472358 -161.82269 -22.110405 103.45315 -14.277246 36.878769
5400000000 -11.530769 60.173611 12.486836 -175.24939 -22.143343 91.01503 -15.364511 23.01461
5500000000 -12.107957 49.534119 12.49765 171.16545 -22.107941 78.470512 -16.790014 7.0286975
5600000000 -12.782374 38.841228 12.498811 157.46481 -22.140928 66.212746 -18.517948 -11.786364
5700000000 -13.571279 28.315561 12.489662 143.64247 -22.173147 53.436108 -20.550711 -35.400444
5800000000 -14.425671 17.488466 12.46623 129.72023 -22.204845 40.837975 -22.212833 -65.991928
5900000000 -15.410445 6.2822862 12.427582 115.74986 -22.243324 27.852947 -22.491928 -103.65063
6000000000 -16.488546 -5.0389576 12.377536 101.67912 -22.309835 15.18579 -21.123779 -137.12091
6100000000 -17.647041 -17.713787 12.308026 87.548309 -22.377235 2.3128331 -19.125395 -162.10298
6200000000 -18.840858 -31.789911 12.22231 73.423759 -22.466824 -10.731993 -17.32744 178.53374
6300000000 -20.018339 -48.537899 12.126535 59.267849 -22.542831 -23.775545 -15.794934 163.33418
6400000000 -21.056215 -68.766998 12.015845 45.042343 -22.643759 -36.736763 -14.494302 150.58792
6500000000 -21.417063 -92.667908 11.904962 30.754942 -22.74304 -49.817524 -13.394582 139.19162
6600000000 -21.030132 -118.10307 11.760744 16.388136 -22.880331 -62.992233 -12.477098 128.74138
6700000000 -19.831385 -142.33194 11.598229 2.0170591 -22.988535 -76.069984 -11.711278 118.77988
6800000000 -18.176998 -163.36736 11.409387 -12.352547 -23.178747 -88.977295 -11.045835 109.63107
6900000000 -16.396576 178.33643 11.202749 -26.68273 -23.353586 -102.43712 -10.481996 100.95329
7000000000 -14.702435 162.16762 10.970753 -41.009857 -23.582102 -115.27208 -9.9492245 92.698769
7100000000 -13.139291 147.22816 10.725927 -55.269497 -23.779387 -128.25182 -9.453002 84.616257
7200000000 -11.740682 133.39798 10.450751 -69.425758 -23.999229 -141.45294 -8.9829693 76.748833
7300000000 -10.498145 119.90749 10.166502 -83.51049 -24.268431 -154.31262 -8.5389109 68.99369
7400000000 -9.4020395 106.78398 9.8627691 -97.43203 -24.50161 -166.84555 -8.1198559 61.108967
7500000000 -8.4485312 94.042419 9.5511169 -111.17678 -24.767227 -179.49174 -7.7041125 53.172855
7600000000 -7.6325178 81.567467 9.2348347 -124.74194 -25.02112 168.42255 -7.3189697 45.352127
7700000000 -6.9366245 69.12812 8.9224186 -138.17084 -25.281103 156.67728 -6.9448862 37.212666
7800000000 -6.333168 56.963123 8.6203775 -151.45988 -25.50494 144.47141 -6.6111255 28.87398
7900000000 -5.8307734 44.928146 8.3208513 -164.64925 -25.724283 132.83536 -6.3012652 20.318979
8000000000 -5.3928895 33.204151 8.0329828 -177.57513 -25.9235 120.86099 -6.031199 11.839237
8100000000 -5.0452762 21.422556 7.7682796 169.49898 -26.08602 109.60355 -5.7689691 3.2331731
8200000000 -4.7460308 9.6684055 7.5385575 156.66397 -26.223267 98.174202 -5.4975238 -5.5222259
8300000000 -4.498898 -2.0176241 7.33146 143.75595 -26.28327 87.05117 -5.2286377 -14.572151
8400000000 -4.291976 -13.611077 7.1343184 130.86447 -26.339046 75.937965 -4.9603672 -23.983799
8500000000 -4.1225357 -25.272861 6.9538965 117.89433 -26.440559 64.728256 -4.7217922 -33.840305
9000000000 -3.71297 -85.071709 6.0975614 51.873882 -26.383461 6.0258999 -3.9559553 -89.246765
9500000000 -3.5579002 -149.57234 5.1892385 -16.293514 -26.25705 -54.642609 -3.7160501 -151.94257
10000000000 -3.3145773 142.68388 3.8350382 -85.908508 -26.494997 -117.7739 -3.4082077 142.27086
10500000000 -2.8238115 77.087097 1.9904796 -153.76843 -27.329241 -179.3326 -2.8154178 78.860825
11000000000 -2.3541579 16.929098 0.0036152799 142.51692 -28.483608 123.41069 -2.3192124 20.551334
11500000000 -2.1365414 -39.644493 -1.5188978 81.575325 -29.628437 70.04718 -2.1978912 -34.939655
12000000000 -2.1996698 -96.935532 -2.4203947 19.910404 -30.265574 18.848314 -2.3980811 -92.760689
12500000000 -2.436631 -159.86749 -3.0617151 -46.942493 -30.897602 -32.609138 -2.8890522 -159.80672
13000000000 -2.5833921 129.44273 -4.4444451 -119.94857 -32.168049 -82.616081 -3.1421854 121.43126
13500000000 -2.2878978 57.856701 -7.3131003 167.52373 -32.998466 -125.20383 -2.5584855 43.863434
14000000000 -1.8248143 -5.7735019 -11.141307 103.3268 -33.185505 -167.88972 -1.8749198 -20.237576
14500000000 -1.4802144 -59.886272 -14.75798 48.633083 -32.71534 148.69324 -1.450865 -71.864914
15000000000 -1.3213968 -107.84538 -17.52846 -0.15972954 -32.018345 104.08637 -1.2019318 -117.64491
15500000000 -1.3241304 -154.11488 -19.440508 -47.331036 -30.708839 61.945911 -1.2176578 -162.42932
16000000000 -1.5190011 157.02936 -20.367916 -95.734741 -28.298355 15.002626 -1.4532385 149.29019
16500000000 -1.9354529 100.68964 -20.742868 -150.13554 -25.438044 -40.549755 -2.0496199 91.52243
17000000000 -2.5154035 31.784811 -21.782192 147.19804 -22.908653 -107.54788 -3.1007981 15.821307
17500000000 -2.8197365 -48.322762 -25.239738 88.793945 -22.155619 -178.93051 -4.4432192 -73.649719
18000000000 -2.5590909 -126.6866 -26.268486 42.444294 -21.318262 107.37936 -3.6394589 -142.77228
18500000000 -2.2283139 165.85867 -28.115818 -7.5092311 -23.051922 36.055962 -2.5376434 147.12292
19000000000 -1.9915098 105.50018 -29.327724 -54.704624 -24.786545 -25.836535 -2.2115326 85.7901
19500000000 -1.8441874 48.030476 -29.749365 -102.40714 -26.069122 -84.027191 -2.1237433 27.213829
20000000000 -1.7356079 -7.7930532 -30.128443 -156.15358 -27.256208 -143.01532 -2.0718813 -30.080635
20500000000 -1.5823101 -61.590481 -31.2169 148.23564 -28.909946 158.77632 -2.0048935 -84.928818
21000000000 -1.4167039 -112.43937 -32.535896 96.627792 -30.728073 104.38604 -1.9805105 -136.50287
21500000000 -1.277454 -159.81941 -33.855465 44.610367 -32.28257 51.584545 -2.1518769 176.16728
22000000000 -1.1914834 155.86118 -36.05711 -5.6391921 -34.482132 0.74693662 -2.6886597 134.30142
22500000000 -1.2123976 112.95633 -37.492649 -36.949272 -35.961807 -31.613756 -3.1465433 95.420555
23000000000 -1.3279562 70.588593 -35.056801 -70.146156 -33.769226 -69.278793 -3.7970014 49.058044
23500000000 -1.535563 25.911207 -31.64769 -132.1622 -30.80719 -131.12888 -7.2730603 -14.799598
24000000000 -2.0056765 -25.363518 -30.895844 149.44388 -30.24526 150.61037 -13.442101 -143.36957
24500000000 -2.5146029 -87.266403 -32.85783 67.94635 -32.381268 70.968987 -7.7979889 102.60281
25000000000 -2.8662529 -156.71628 -40.087479 -8.9163694 -39.507156 -4.8074517 -5.6567211 33.691887
25500000000 -2.731683 136.4101 -49.470779 44.287426 -48.816261 51.548832 -7.2726092 -31.415821
26000000000 -2.474194 78.951782 -39.558144 0.39709389 -39.089294 -0.010509673 -14.916266 -131.44682
26500000000 -2.4286485 26.273767 -36.09248 -52.044132 -35.700138 -53.743992 -14.157402 35.736057
